
T25B4 000:000 SEGGER J-Link V4.90 Log File (0000ms, 0000ms total)
T25B4 000:000 DLL Compiled: Jul 28 2014 10:35:20 (0000ms, 0000ms total)
T25B4 000:000 Logging started @ 2023-10-28 11:34 (0000ms, 0000ms total)
T25B4 000:000 JLINK_SetWarnOutHandler(...) (0000ms, 0000ms total)
T25B4 000:000 JLINK_OpenEx(...)
Firmware: J-Link V9 compiled May  7 2021 16:26:12
Hardware: V9.70
S/N: 59700618
Feature(s): RDI, FlashBP, FlashDL, JFlash, GDB  returns O.K. (0259ms, 0259ms total)
T25B4 000:259 JLINK_GetEmuCaps()  returns 0xB9FF7BBF (0000ms, 0259ms total)
T25B4 000:259 JLINK_TIF_GetAvailable(...) (0000ms, 0259ms total)
T25B4 000:259 JLINK_SetErrorOutHandler(...) (0000ms, 0259ms total)
T25B4 000:259 JLINK_ExecCommand("ProjectFile = "E:\RP\CppTemplate\MDK-ARM\JLinkSettings.ini"", ...)Device "UNSPECIFIED" selected (0 KB flash, 0 KB RAM).  returns 0x00 (0001ms, 0260ms total)
T25B4 000:260 JLINK_ExecCommand("Device = STM32F407VETx", ...)Device "UNSPECIFIED" selected (0 KB flash, 0 KB RAM).  returns 0x00 (0000ms, 0260ms total)
T25B4 000:260 JLINK_ExecCommand("DisableConnectionTimeout", ...)  returns 0x01 (0000ms, 0260ms total)
T25B4 000:260 JLINK_GetHardwareVersion()  returns 0x17AE8 (0000ms, 0260ms total)
T25B4 000:260 JLINK_GetDLLVersion()  returns 49000 (0000ms, 0260ms total)
T25B4 000:260 JLINK_GetFirmwareString(...) (0000ms, 0260ms total)
T25B4 000:260 JLINK_GetDLLVersion()  returns 49000 (0000ms, 0260ms total)
T25B4 000:260 JLINK_GetCompileDateTime() (0000ms, 0260ms total)
T25B4 000:260 JLINK_GetFirmwareString(...) (0000ms, 0260ms total)
T25B4 000:260 JLINK_GetHardwareVersion()  returns 0x17AE8 (0000ms, 0260ms total)
T25B4 000:260 JLINK_TIF_Select(JLINKARM_TIF_SWD)  returns 0x00 (0000ms, 0260ms total)
T25B4 000:261 JLINK_SetSpeed(5000) (0000ms, 0260ms total)
T25B4 000:261 JLINK_GetId() >0x108 TIF>Found SWD-DP with ID 0x2BA01477 >0x0D TIF> >0x21 TIF> >0x0D TIF> >0x28 TIF> >0x0D TIF> >0x28 TIF> >0x0D TIF> >0x21 TIF> >0x0D TIF> >0x28 TIF> >0x0D TIF> >0x21 TIF> >0x0D TIF> >0x21 TIF> >0x0D TIF> >0x21 TIF> >0x0D TIF> >0x21 TIF> >0x0D TIF> >0x28 TIF> >0x0D TIF> >0x28 TIF> >0x0D TIF> >0x21 TIF> >0x0D TIF> >0x28 TIF> >0x0D TIF> >0x28 TIF> >0x0D TIF> >0x28 TIF> >0x0D TIF> >0x21 TIF> >0x0D TIF> >0x21 TIF> >0x0D TIF> >0x28 TIF> >0x0D TIF> >0x21 TIF> >0x0D TIF>
 >0x21 TIF>Found Cortex-M4 r0p1, Little endian. -- CPU_WriteMem(4 bytes @ 0xE0002000) -- CPU_ReadMem(4 bytes @ 0xE000EDF0) -- CPU_ReadMem(4 bytes @ 0xE0002000)FPUnit: 6 code (BP) slots and 2 literal slots -- CPU_ReadMem(4 bytes @ 0xE000EDFC) -- CPU_ReadMem(4 bytes @ 0xE0001000) -- CPU_WriteMem(4 bytes @ 0xE0001000) -- CPU_ReadMem(4 bytes @ 0xE00FF010)TPIU fitted. -- CPU_ReadMem(4 bytes @ 0xE00FF014)ETM fitted. -- CPU_ReadMem(4 bytes @ 0xE00FF018) >0x0D TIF> >0x21 TIF>  returns 0x2BA01477
 (0008ms, 0268ms total)
T25B4 000:269 JLINK_GetDLLVersion()  returns 49000 (0000ms, 0268ms total)
T25B4 000:269 JLINK_CORE_GetFound()  returns 0xE0000FF (0000ms, 0268ms total)
T25B4 000:269 JLINK_GetDebugInfo(0x100) -- Value=0xE00FF003  returns 0x00 (0000ms, 0268ms total)
T25B4 000:269 JLINK_GetDebugInfo(0x101)  returns 0xFFFFFFFF (0000ms, 0268ms total)
T25B4 000:269 JLINK_ReadMemEx(0xE0041FF0, 0x0010 Bytes, ..., AccessWidth = 33554436) -- CPU is running -- CPU_ReadMem(16 bytes @ 0xE0041FF0) - Data: 0D 00 00 00 90 00 00 00 05 00 00 00 B1 00 00 00  returns 0x10 (0001ms, 0269ms total)
T25B4 000:270 JLINK_GetDebugInfo(0x102)  returns 0xFFFFFFFF (0000ms, 0269ms total)
T25B4 000:270 JLINK_GetDebugInfo(0x103)  returns 0xFFFFFFFF (0000ms, 0269ms total)
T25B4 000:270 JLINK_ReadMemEx(0xE0040FF0, 0x0010 Bytes, ..., AccessWidth = 33554436) -- CPU is running -- CPU_ReadMem(16 bytes @ 0xE0040FF0) - Data: 0D 00 00 00 90 00 00 00 05 00 00 00 B1 00 00 00  returns 0x10 (0000ms, 0269ms total)
T25B4 000:270 JLINK_GetDebugInfo(0x104)  returns 0xFFFFFFFF (0000ms, 0269ms total)
T25B4 000:270 JLINK_GetDebugInfo(0x105)  returns 0xFFFFFFFF (0000ms, 0269ms total)
T25B4 000:270 JLINK_GetDebugInfo(0x106)  returns 0xFFFFFFFF (0000ms, 0269ms total)
T25B4 000:270 JLINK_GetDebugInfo(0x107)  returns 0xFFFFFFFF (0000ms, 0269ms total)
T25B4 000:270 JLINK_GetDebugInfo(0x10C)  returns 0xFFFFFFFF (0000ms, 0269ms total)
T25B4 000:270 JLINK_ReadMemU32(0xE000EF40, 0x0001 Items, ...) -- CPU is running -- CPU_ReadMem(4 bytes @ 0xE000EF40) - Data: 21 00 11 10  returns 0x01 (0000ms, 0269ms total)
T25B4 000:270 JLINK_ReadMemU32(0xE000EF44, 0x0001 Items, ...) -- CPU is running -- CPU_ReadMem(4 bytes @ 0xE000EF44) - Data: 11 00 00 11  returns 0x01 (0000ms, 0269ms total)
T25B4 000:270 JLINK_ReadMemU32(0xE000ED00, 0x0001 Items, ...) -- CPU is running -- CPU_ReadMem(4 bytes @ 0xE000ED00) - Data: 41 C2 0F 41  returns 0x01 (0000ms, 0269ms total)
T25B4 000:270 JLINK_GetDebugInfo(0x10F)  returns 0xFFFFFFFF (0000ms, 0269ms total)
T25B4 000:270 JLINK_SetResetType(JLINKARM_RESET_TYPE_NORMAL)  returns JLINKARM_RESET_TYPE_NORMAL (0000ms, 0269ms total)
T25B4 000:270 JLINK_Reset() -- CPU is running -- CPU_WriteMem(4 bytes @ 0xE000EDF0) -- CPU is running -- CPU_WriteMem(4 bytes @ 0xE000EDFC) >0x35 TIF> -- CPU is running -- CPU_WriteMem(4 bytes @ 0xE000ED0C) -- CPU is running -- CPU_ReadMem(4 bytes @ 0xE000EDF0) -- CPU is running -- CPU_ReadMem(4 bytes @ 0xE000EDF0) -- CPU is running -- CPU_WriteMem(4 bytes @ 0xE000EDF0) -- CPU is running -- CPU_WriteMem(4 bytes @ 0xE000EDFC) -- CPU is running -- CPU_ReadMem(4 bytes @ 0xE000EDF0)
 -- CPU_WriteMem(4 bytes @ 0xE0002000) -- CPU_ReadMem(4 bytes @ 0xE000EDFC) -- CPU_ReadMem(4 bytes @ 0xE0001000) (0015ms, 0284ms total)
T25B4 000:285 JLINK_ReadReg(R15 (PC))  returns 0x08000338 (0000ms, 0284ms total)
T25B4 000:285 JLINK_ReadReg(XPSR)  returns 0x01000000 (0000ms, 0284ms total)
T25B4 000:285 JLINK_Halt()  returns 0x00 (0000ms, 0284ms total)
T25B4 000:285 JLINK_ReadMemU32(0xE000EDF0, 0x0001 Items, ...) -- CPU_ReadMem(4 bytes @ 0xE000EDF0) - Data: 03 00 03 00  returns 0x01 (0000ms, 0284ms total)
T25B4 000:285 JLINK_WriteU32(0xE000EDF0, 0xA05F0003) -- CPU_WriteMem(4 bytes @ 0xE000EDF0)  returns 0x00 (0001ms, 0285ms total)
T25B4 000:286 JLINK_WriteU32(0xE000EDFC, 0x01000000) -- CPU_WriteMem(4 bytes @ 0xE000EDFC)  returns 0x00 (0000ms, 0285ms total)
T25B4 000:286 JLINK_GetHWStatus(...)  returns 0x00 (0000ms, 0285ms total)
T25B4 000:286 JLINK_GetNumBPUnits(Type = 0xFFFFFF00)  returns 0x06 (0000ms, 0285ms total)
T25B4 000:286 JLINK_GetNumBPUnits(Type = 0xF0)  returns 0x2000 (0000ms, 0285ms total)
T25B4 000:286 JLINK_GetNumWPUnits()  returns 0x04 (0000ms, 0285ms total)
T25B4 000:286 JLINK_GetSpeed()  returns 0xFA0 (0000ms, 0285ms total)
T25B4 000:286 JLINK_ReadMemU32(0xE000E004, 0x0001 Items, ...) -- CPU_ReadMem(4 bytes @ 0xE000E004) - Data: 02 00 00 00  returns 0x01 (0001ms, 0286ms total)
T25B4 000:287 JLINK_ReadMemU32(0xE000E004, 0x0001 Items, ...) -- CPU_ReadMem(4 bytes @ 0xE000E004) - Data: 02 00 00 00  returns 0x01 (0000ms, 0286ms total)
T25B4 000:287 JLINK_WriteMemEx(0xE0001000, 0x001C Bytes, ..., AccessWidth = 33554436) - Data: 01 00 00 00 00 00 00 00 00 00 00 00 00 00 00 00 ... -- CPU_WriteMem(28 bytes @ 0xE0001000)  returns 0x1C (0000ms, 0286ms total)
T25B4 000:287 JLINK_ReadReg(R15 (PC))  returns 0x08000338 (0000ms, 0286ms total)
T25B4 000:287 JLINK_ReadReg(XPSR)  returns 0x01000000 (0000ms, 0286ms total)
T25B4 000:296 JLINK_ReadMemEx(0xE0001004, 0x0004 Bytes, ..., AccessWidth = 33554432)Mis-aligned memory read: Address: 0xE0001004, NumBytes: 4, Alignment: 2 (Halfword-aligned)
  ***** Mis-aligned memory read: Address: 0xE0001004, NumBytes: 4, Alignment: 2 (Halfword-aligned) -- CPU_ReadMem(4 bytes @ 0xE0001004) - Data: 00 00 00 00  returns 0x04 (0001ms, 0287ms total)
T25B4 000:735 JLINK_SetResetType(JLINKARM_RESET_TYPE_NORMAL)  returns JLINKARM_RESET_TYPE_NORMAL (0000ms, 0287ms total)
T25B4 000:735 JLINK_Reset() -- CPU_WriteMem(4 bytes @ 0xE000EDF0) -- CPU_WriteMem(4 bytes @ 0xE000EDFC) >0x35 TIF> -- CPU_WriteMem(4 bytes @ 0xE000ED0C) -- CPU_ReadMem(4 bytes @ 0xE000EDF0) -- CPU_ReadMem(4 bytes @ 0xE000EDF0) -- CPU_WriteMem(4 bytes @ 0xE000EDF0) -- CPU_WriteMem(4 bytes @ 0xE000EDFC) -- CPU is running -- CPU_ReadMem(4 bytes @ 0xE000EDF0) -- CPU_WriteMem(4 bytes @ 0xE0002000) -- CPU_ReadMem(4 bytes @ 0xE000EDFC) -- CPU_ReadMem(4 bytes @ 0xE0001000) (0014ms, 0301ms total)
T25B4 000:749 JLINK_ReadReg(R15 (PC))  returns 0x08000338 (0000ms, 0301ms total)
T25B4 000:749 JLINK_ReadReg(XPSR)  returns 0x01000000 (0000ms, 0301ms total)
T25B4 000:895 JLINK_ReadMemEx(0x08000238, 0x003C Bytes, ..., AccessWidth = 33554432)Mis-aligned memory read: Address: 0x08000238, NumBytes: 60, Alignment: 2 (Halfword-aligned)
  ***** Mis-aligned memory read: Address: 0x08000238, NumBytes: 60, Alignment: 2 (Halfword-aligned) -- CPU_ReadMem(60 bytes @ 0x08000238) - Data: 0B 60 70 47 6E 29 02 F0 63 80 70 29 02 F0 C7 81 ...  returns 0x3C (0001ms, 0302ms total)
T25B4 000:896 JLINK_ReadMemEx(0x08000274, 0x003C Bytes, ..., AccessWidth = 33554432)Mis-aligned memory read: Address: 0x08000274, NumBytes: 60, Alignment: 2 (Halfword-aligned)
  ***** Mis-aligned memory read: Address: 0x08000274, NumBytes: 60, Alignment: 2 (Halfword-aligned) -- CPU_ReadMem(60 bytes @ 0x08000274) - Data: 0D 80 75 29 02 F0 0A 80 6F 29 02 F0 55 81 78 29 ...  returns 0x3C (0000ms, 0302ms total)
T25B4 000:896 JLINK_ReadMemEx(0x080002B0, 0x003C Bytes, ..., AccessWidth = 33554432)Mis-aligned memory read: Address: 0x080002B0, NumBytes: 60, Alignment: 2 (Halfword-aligned)
  ***** Mis-aligned memory read: Address: 0x080002B0, NumBytes: 60, Alignment: 2 (Halfword-aligned) -- CPU_ReadMem(60 bytes @ 0x080002B0) - Data: 63 29 00 F0 81 87 73 29 00 F0 86 87 E3 29 03 F0 ...  returns 0x3C (0001ms, 0303ms total)
T25B4 000:897 JLINK_ReadMemEx(0x080002EC, 0x003C Bytes, ..., AccessWidth = 33554432)Mis-aligned memory read: Address: 0x080002EC, NumBytes: 60, Alignment: 2 (Halfword-aligned)
  ***** Mis-aligned memory read: Address: 0x080002EC, NumBytes: 60, Alignment: 2 (Halfword-aligned) -- CPU_ReadMem(60 bytes @ 0x080002EC) - Data: 00 20 00 21 21 F0 E4 F8 E0 60 00 20 00 21 21 F0 ...  returns 0x3C (0000ms, 0303ms total)
T25B4 000:897 JLINK_ReadMemEx(0x08000328, 0x003C Bytes, ..., AccessWidth = 33554432)Mis-aligned memory read: Address: 0x08000328, NumBytes: 60, Alignment: 2 (Halfword-aligned)
  ***** Mis-aligned memory read: Address: 0x08000328, NumBytes: 60, Alignment: 2 (Halfword-aligned) -- CPU_ReadMem(60 bytes @ 0x08000328) - Data: F4 FA 03 B4 FF F7 ED FF 03 BC 00 F0 FB F9 00 00 ...  returns 0x3C (0001ms, 0304ms total)
T25B4 002:428 JLINK_ReadReg(R0)  returns 0x00000000 (0000ms, 0304ms total)
T25B4 002:428 JLINK_ReadReg(R1)  returns 0x00000000 (0000ms, 0304ms total)
T25B4 002:428 JLINK_ReadReg(R2)  returns 0x00000000 (0000ms, 0304ms total)
T25B4 002:428 JLINK_ReadReg(R3)  returns 0x00000000 (0000ms, 0304ms total)
T25B4 002:428 JLINK_ReadReg(R4)  returns 0x00000000 (0000ms, 0304ms total)
T25B4 002:428 JLINK_ReadReg(R5)  returns 0x00000000 (0000ms, 0304ms total)
T25B4 002:428 JLINK_ReadReg(R6)  returns 0x00000000 (0000ms, 0304ms total)
T25B4 002:428 JLINK_ReadReg(R7)  returns 0x00000000 (0000ms, 0304ms total)
T25B4 002:428 JLINK_ReadReg(R8)  returns 0x00000000 (0000ms, 0304ms total)
T25B4 002:428 JLINK_ReadReg(R9)  returns 0x00000000 (0000ms, 0304ms total)
T25B4 002:428 JLINK_ReadReg(R10)  returns 0x00000000 (0000ms, 0304ms total)
T25B4 002:428 JLINK_ReadReg(R11)  returns 0x00000000 (0000ms, 0304ms total)
T25B4 002:428 JLINK_ReadReg(R12)  returns 0x00000000 (0000ms, 0304ms total)
T25B4 002:428 JLINK_ReadReg(R13 (SP))  returns 0x20006838 (0000ms, 0304ms total)
T25B4 002:428 JLINK_ReadReg(R14)  returns 0xFFFFFFFF (0000ms, 0304ms total)
T25B4 002:428 JLINK_ReadReg(R15 (PC))  returns 0x08000338 (0000ms, 0304ms total)
T25B4 002:428 JLINK_ReadReg(XPSR)  returns 0x01000000 (0000ms, 0304ms total)
T25B4 002:428 JLINK_ReadReg(MSP)  returns 0x20006838 (0000ms, 0304ms total)
T25B4 002:428 JLINK_ReadReg(PSP)  returns 0x00000000 (0000ms, 0304ms total)
T25B4 002:428 JLINK_ReadReg(CFBP)  returns 0x00000000 (0000ms, 0304ms total)
T25B4 002:428 JLINK_ReadReg(FPSCR)  returns 0x00000000 (0003ms, 0307ms total)
T25B4 002:431 JLINK_ReadReg(FPS0)  returns 0x00000000 (0000ms, 0307ms total)
T25B4 002:431 JLINK_ReadReg(FPS1)  returns 0x00000000 (0000ms, 0307ms total)
T25B4 002:431 JLINK_ReadReg(FPS2)  returns 0x00000000 (0000ms, 0307ms total)
T25B4 002:431 JLINK_ReadReg(FPS3)  returns 0x00000000 (0000ms, 0307ms total)
T25B4 002:431 JLINK_ReadReg(FPS4)  returns 0x00000000 (0000ms, 0307ms total)
T25B4 002:431 JLINK_ReadReg(FPS5)  returns 0x00000000 (0000ms, 0307ms total)
T25B4 002:431 JLINK_ReadReg(FPS6)  returns 0x00000000 (0000ms, 0307ms total)
T25B4 002:431 JLINK_ReadReg(FPS7)  returns 0x00000000 (0000ms, 0307ms total)
T25B4 002:431 JLINK_ReadReg(FPS8)  returns 0x00000000 (0000ms, 0307ms total)
T25B4 002:431 JLINK_ReadReg(FPS9)  returns 0x00000000 (0000ms, 0307ms total)
T25B4 002:431 JLINK_ReadReg(FPS10)  returns 0x00000000 (0000ms, 0307ms total)
T25B4 002:431 JLINK_ReadReg(FPS11)  returns 0x00000000 (0000ms, 0307ms total)
T25B4 002:431 JLINK_ReadReg(FPS12)  returns 0x00000000 (0000ms, 0307ms total)
T25B4 002:431 JLINK_ReadReg(FPS13)  returns 0x00000000 (0000ms, 0307ms total)
T25B4 002:431 JLINK_ReadReg(FPS14)  returns 0x00000000 (0000ms, 0307ms total)
T25B4 002:431 JLINK_ReadReg(FPS15)  returns 0x00000000 (0000ms, 0307ms total)
T25B4 002:431 JLINK_ReadReg(FPS16)  returns 0x00000000 (0000ms, 0307ms total)
T25B4 002:431 JLINK_ReadReg(FPS17)  returns 0x00000000 (0000ms, 0307ms total)
T25B4 002:431 JLINK_ReadReg(FPS18)  returns 0x00000000 (0000ms, 0307ms total)
T25B4 002:431 JLINK_ReadReg(FPS19)  returns 0x00000000 (0000ms, 0307ms total)
T25B4 002:431 JLINK_ReadReg(FPS20)  returns 0x00000000 (0000ms, 0307ms total)
T25B4 002:431 JLINK_ReadReg(FPS21)  returns 0x00000000 (0000ms, 0307ms total)
T25B4 002:431 JLINK_ReadReg(FPS22)  returns 0x00000000 (0000ms, 0307ms total)
T25B4 002:431 JLINK_ReadReg(FPS23)  returns 0x00000000 (0000ms, 0307ms total)
T25B4 002:431 JLINK_ReadReg(FPS24)  returns 0x00000000 (0000ms, 0307ms total)
T25B4 002:431 JLINK_ReadReg(FPS25)  returns 0x00000000 (0000ms, 0307ms total)
T25B4 002:431 JLINK_ReadReg(FPS26)  returns 0x00000000 (0000ms, 0307ms total)
T25B4 002:431 JLINK_ReadReg(FPS27)  returns 0x00000000 (0000ms, 0307ms total)
T25B4 002:431 JLINK_ReadReg(FPS28)  returns 0x00000000 (0000ms, 0307ms total)
T25B4 002:431 JLINK_ReadReg(FPS29)  returns 0x00000000 (0000ms, 0307ms total)
T25B4 002:431 JLINK_ReadReg(FPS30)  returns 0x00000000 (0000ms, 0307ms total)
T25B4 002:431 JLINK_ReadReg(FPS31)  returns 0x00000000 (0000ms, 0307ms total)
T25B4 002:527 JLINK_ReadMemEx(0x20001640, 0x000C Bytes, ..., AccessWidth = 33554432)Mis-aligned memory read: Address: 0x20001640, NumBytes: 12, Alignment: 2 (Halfword-aligned)
  ***** Mis-aligned memory read: Address: 0x20001640, NumBytes: 12, Alignment: 2 (Halfword-aligned) -- CPU_ReadMem(12 bytes @ 0x20001640) - Data: 00 00 00 00 00 00 00 00 00 00 00 00  returns 0x0C (0000ms, 0307ms total)
T2484 002:614 JLINK_ReadMemEx(0x08000338, 0x0002 Bytes, ..., AccessWidth = 33554432)Mis-aligned memory read: Address: 0x08000338, NumBytes: 2, Alignment: 2 (Halfword-aligned)
  ***** Mis-aligned memory read: Address: 0x08000338, NumBytes: 2, Alignment: 2 (Halfword-aligned) -- CPU_ReadMem(2 bytes @ 0x08000338) - Data: 09 48  returns 0x02 (0001ms, 0308ms total)
T2484 002:615 JLINK_SetBPEx(Addr = 0x0801F270, Type = 0xFFFFFFF2)  returns 0x00000001 (0000ms, 0308ms total)
T2484 002:615 JLINK_Go() -- CPU_WriteMem(4 bytes @ 0xE0002000) -- CPU_WriteMem(4 bytes @ 0xE0002008) -- CPU_WriteMem(4 bytes @ 0xE000200C) -- CPU_WriteMem(4 bytes @ 0xE0002010) -- CPU_WriteMem(4 bytes @ 0xE0002014) -- CPU_WriteMem(4 bytes @ 0xE0002018) -- CPU_WriteMem(4 bytes @ 0xE000201C) -- CPU_WriteMem(4 bytes @ 0xE0001004) (0003ms, 0311ms total)
T2484 002:719 JLINK_IsHalted()  returns TRUE (0001ms, 0312ms total)
T2484 002:720 JLINK_Halt()  returns 0x00 (0000ms, 0311ms total)
T2484 002:720 JLINK_IsHalted()  returns TRUE (0000ms, 0311ms total)
T2484 002:720 JLINK_IsHalted()  returns TRUE (0000ms, 0311ms total)
T2484 002:720 JLINK_IsHalted()  returns TRUE (0000ms, 0311ms total)
T2484 002:720 JLINK_ReadReg(R15 (PC))  returns 0x0800200C (0000ms, 0311ms total)
T2484 002:720 JLINK_ReadReg(XPSR)  returns 0x21000000 (0000ms, 0311ms total)
T2484 002:720 JLINK_ClrBPEx(BPHandle = 0x00000001)  returns 0x00 (0001ms, 0312ms total)
T2484 002:721 JLINK_ReadMemU32(0xE000ED30, 0x0001 Items, ...) -- CPU_ReadMem(4 bytes @ 0xE000ED30) - Data: 02 00 00 00  returns 0x01 (0000ms, 0312ms total)
T2484 002:721 JLINK_ReadMemU32(0xE0001028, 0x0001 Items, ...) -- CPU_ReadMem(4 bytes @ 0xE0001028) - Data: 00 00 00 00  returns 0x01 (0000ms, 0312ms total)
T2484 002:721 JLINK_ReadMemU32(0xE0001038, 0x0001 Items, ...) -- CPU_ReadMem(4 bytes @ 0xE0001038) - Data: 00 02 00 00  returns 0x01 (0000ms, 0312ms total)
T2484 002:721 JLINK_ReadMemU32(0xE0001048, 0x0001 Items, ...) -- CPU_ReadMem(4 bytes @ 0xE0001048) - Data: 00 00 00 00  returns 0x01 (0001ms, 0313ms total)
T2484 002:722 JLINK_ReadMemU32(0xE0001058, 0x0001 Items, ...) -- CPU_ReadMem(4 bytes @ 0xE0001058) - Data: 00 00 00 00  returns 0x01 (0000ms, 0313ms total)
T2484 002:722 JLINK_ReadReg(R0)  returns 0x00000001 (0000ms, 0313ms total)
T2484 002:722 JLINK_ReadReg(R1)  returns 0x200067F0 (0000ms, 0313ms total)
T2484 002:722 JLINK_ReadReg(R2)  returns 0x00000000 (0000ms, 0313ms total)
T2484 002:722 JLINK_ReadReg(R3)  returns 0x08021A38 (0000ms, 0313ms total)
T2484 002:722 JLINK_ReadReg(R4)  returns 0x00000000 (0000ms, 0313ms total)
T2484 002:722 JLINK_ReadReg(R5)  returns 0x00000001 (0000ms, 0313ms total)
T2484 002:722 JLINK_ReadReg(R6)  returns 0x200001E8 (0000ms, 0313ms total)
T2484 002:722 JLINK_ReadReg(R7)  returns 0x08021A37 (0000ms, 0313ms total)
T2484 002:722 JLINK_ReadReg(R8)  returns 0x00000000 (0000ms, 0313ms total)
T2484 002:722 JLINK_ReadReg(R9)  returns 0x00000000 (0000ms, 0313ms total)
T2484 002:722 JLINK_ReadReg(R10)  returns 0x08023910 (0000ms, 0313ms total)
T2484 002:722 JLINK_ReadReg(R11)  returns 0x00000000 (0000ms, 0313ms total)
T2484 002:722 JLINK_ReadReg(R12)  returns 0x00000000 (0000ms, 0313ms total)
T2484 002:722 JLINK_ReadReg(R13 (SP))  returns 0x200067F0 (0000ms, 0313ms total)
T2484 002:722 JLINK_ReadReg(R14)  returns 0x08002007 (0000ms, 0313ms total)
T2484 002:722 JLINK_ReadReg(R15 (PC))  returns 0x0800200C (0000ms, 0313ms total)
T2484 002:722 JLINK_ReadReg(XPSR)  returns 0x21000000 (0000ms, 0313ms total)
T2484 002:722 JLINK_ReadReg(MSP)  returns 0x200067F0 (0000ms, 0313ms total)
T2484 002:722 JLINK_ReadReg(PSP)  returns 0x00000000 (0000ms, 0313ms total)
T2484 002:722 JLINK_ReadReg(CFBP)  returns 0x04000000 (0000ms, 0313ms total)
T2484 002:722 JLINK_ReadReg(FPSCR)  returns 0x03000000 (0003ms, 0316ms total)
T2484 002:725 JLINK_ReadReg(FPS0)  returns 0x00000000 (0000ms, 0316ms total)
T2484 002:725 JLINK_ReadReg(FPS1)  returns 0x00000000 (0000ms, 0316ms total)
T2484 002:725 JLINK_ReadReg(FPS2)  returns 0x00000000 (0000ms, 0316ms total)
T2484 002:725 JLINK_ReadReg(FPS3)  returns 0x00000000 (0000ms, 0316ms total)
T2484 002:725 JLINK_ReadReg(FPS4)  returns 0x00000000 (0000ms, 0316ms total)
T2484 002:725 JLINK_ReadReg(FPS5)  returns 0x00000000 (0000ms, 0316ms total)
T2484 002:725 JLINK_ReadReg(FPS6)  returns 0x00000000 (0000ms, 0316ms total)
T2484 002:725 JLINK_ReadReg(FPS7)  returns 0x00000000 (0000ms, 0316ms total)
T2484 002:725 JLINK_ReadReg(FPS8)  returns 0x00000000 (0000ms, 0316ms total)
T2484 002:725 JLINK_ReadReg(FPS9)  returns 0x00000000 (0000ms, 0316ms total)
T2484 002:725 JLINK_ReadReg(FPS10)  returns 0x00000000 (0000ms, 0316ms total)
T2484 002:725 JLINK_ReadReg(FPS11)  returns 0x00000000 (0000ms, 0316ms total)
T2484 002:725 JLINK_ReadReg(FPS12)  returns 0x00000000 (0000ms, 0316ms total)
T2484 002:725 JLINK_ReadReg(FPS13)  returns 0x00000000 (0000ms, 0316ms total)
T2484 002:725 JLINK_ReadReg(FPS14)  returns 0x00000000 (0000ms, 0316ms total)
T2484 002:725 JLINK_ReadReg(FPS15)  returns 0x00000000 (0000ms, 0316ms total)
T2484 002:725 JLINK_ReadReg(FPS16)  returns 0x00000000 (0000ms, 0316ms total)
T2484 002:725 JLINK_ReadReg(FPS17)  returns 0x00000000 (0000ms, 0316ms total)
T2484 002:725 JLINK_ReadReg(FPS18)  returns 0x00000000 (0000ms, 0316ms total)
T2484 002:725 JLINK_ReadReg(FPS19)  returns 0x00000000 (0000ms, 0316ms total)
T2484 002:725 JLINK_ReadReg(FPS20)  returns 0x00000000 (0000ms, 0316ms total)
T2484 002:725 JLINK_ReadReg(FPS21)  returns 0x00000000 (0000ms, 0316ms total)
T2484 002:725 JLINK_ReadReg(FPS22)  returns 0x00000000 (0000ms, 0316ms total)
T2484 002:725 JLINK_ReadReg(FPS23)  returns 0x00000000 (0000ms, 0316ms total)
T2484 002:725 JLINK_ReadReg(FPS24)  returns 0x00000000 (0000ms, 0316ms total)
T2484 002:725 JLINK_ReadReg(FPS25)  returns 0x00000000 (0000ms, 0316ms total)
T2484 002:725 JLINK_ReadReg(FPS26)  returns 0x00000000 (0000ms, 0316ms total)
T2484 002:725 JLINK_ReadReg(FPS27)  returns 0x00000000 (0000ms, 0316ms total)
T2484 002:725 JLINK_ReadReg(FPS28)  returns 0x00000000 (0000ms, 0316ms total)
T2484 002:725 JLINK_ReadReg(FPS29)  returns 0x00000000 (0000ms, 0316ms total)
T2484 002:725 JLINK_ReadReg(FPS30)  returns 0x00000000 (0000ms, 0316ms total)
T2484 002:725 JLINK_ReadReg(FPS31)  returns 0x00000000 (0000ms, 0316ms total)
T2484 002:725 JLINK_ReadMemEx(0x20005F30, 0x0004 Bytes, ..., AccessWidth = 33554432)Mis-aligned memory read: Address: 0x20005F30, NumBytes: 4, Alignment: 2 (Halfword-aligned)
  ***** Mis-aligned memory read: Address: 0x20005F30, NumBytes: 4, Alignment: 2 (Halfword-aligned) -- CPU_ReadMem(4 bytes @ 0x20005F30) - Data: 00 00 00 00  returns 0x04 (0000ms, 0316ms total)
T25B4 002:729 JLINK_ReadMemEx(0x20001640, 0x000C Bytes, ..., AccessWidth = 33554432)Mis-aligned memory read: Address: 0x20001640, NumBytes: 12, Alignment: 2 (Halfword-aligned)
  ***** Mis-aligned memory read: Address: 0x20001640, NumBytes: 12, Alignment: 2 (Halfword-aligned) -- CPU_ReadMem(12 bytes @ 0x20001640) - Data: 00 00 00 00 00 00 00 00 00 00 00 00  returns 0x0C (0000ms, 0316ms total)
T25B4 002:747 JLINK_ReadMemEx(0x0800200C, 0x003C Bytes, ..., AccessWidth = 33554432)Mis-aligned memory read: Address: 0x0800200C, NumBytes: 60, Alignment: 2 (Halfword-aligned)
  ***** Mis-aligned memory read: Address: 0x0800200C, NumBytes: 60, Alignment: 2 (Halfword-aligned) -- CPU_ReadMem(128 bytes @ 0x08002000) -- Updating DA cache (128 bytes @ 0x08002000) -- Read from DA cache (60 bytes @ 0x0800200C) - Data: AB BE 0E BD 08 B5 69 46 00 90 02 20 AB BE 08 BD ...  returns 0x3C (0000ms, 0316ms total)
T25B4 002:748 JLINK_ReadMemEx(0x08002048, 0x003C Bytes, ..., AccessWidth = 33554432)Mis-aligned memory read: Address: 0x08002048, NumBytes: 60, Alignment: 2 (Halfword-aligned)
  ***** Mis-aligned memory read: Address: 0x08002048, NumBytes: 60, Alignment: 2 (Halfword-aligned) -- CPU_ReadMem(64 bytes @ 0x08002080) -- Updating DA cache (64 bytes @ 0x08002080) -- Read from DA cache (60 bytes @ 0x08002048) - Data: CD E9 00 01 69 46 0A 20 AB BE 1C BD 70 47 08 B5 ...  returns 0x3C (0000ms, 0316ms total)
T2484 004:209 JLINK_ReadMemEx(0x0800200C, 0x0002 Bytes, ..., AccessWidth = 33554432)Mis-aligned memory read: Address: 0x0800200C, NumBytes: 2, Alignment: 2 (Halfword-aligned)
  ***** Mis-aligned memory read: Address: 0x0800200C, NumBytes: 2, Alignment: 2 (Halfword-aligned) -- Read from DA cache (2 bytes @ 0x0800200C) - Data: AB BE  returns 0x02 (0000ms, 0316ms total)
T2484 004:209 JLINK_WriteReg(R15 (PC), 0x0800200E)  returns 0x00 (0000ms, 0316ms total)
T2484 004:209 JLINK_Go() -- CPU_WriteMem(4 bytes @ 0xE0002008) (0002ms, 0318ms total)
T2484 004:312 JLINK_IsHalted()  returns TRUE (0001ms, 0319ms total)
T2484 004:313 JLINK_Halt()  returns 0x00 (0000ms, 0318ms total)
T2484 004:313 JLINK_IsHalted()  returns TRUE (0000ms, 0318ms total)
T2484 004:313 JLINK_IsHalted()  returns TRUE (0001ms, 0319ms total)
T2484 004:314 JLINK_IsHalted()  returns TRUE (0000ms, 0318ms total)
T2484 004:314 JLINK_ReadReg(R15 (PC))  returns 0x0800200C (0000ms, 0318ms total)
T2484 004:314 JLINK_ReadReg(XPSR)  returns 0x21000000 (0000ms, 0318ms total)
T2484 004:314 JLINK_ReadMemU32(0xE000ED30, 0x0001 Items, ...) -- CPU_ReadMem(4 bytes @ 0xE000ED30) - Data: 02 00 00 00  returns 0x01 (0000ms, 0318ms total)
T2484 004:314 JLINK_ReadMemU32(0xE0001028, 0x0001 Items, ...) -- CPU_ReadMem(4 bytes @ 0xE0001028) - Data: 00 00 00 00  returns 0x01 (0000ms, 0318ms total)
T2484 004:314 JLINK_ReadMemU32(0xE0001038, 0x0001 Items, ...) -- CPU_ReadMem(4 bytes @ 0xE0001038) - Data: 00 02 00 00  returns 0x01 (0000ms, 0318ms total)
T2484 004:314 JLINK_ReadMemU32(0xE0001048, 0x0001 Items, ...) -- CPU_ReadMem(4 bytes @ 0xE0001048) - Data: 00 00 00 00  returns 0x01 (0001ms, 0319ms total)
T2484 004:315 JLINK_ReadMemU32(0xE0001058, 0x0001 Items, ...) -- CPU_ReadMem(4 bytes @ 0xE0001058) - Data: 00 00 00 00  returns 0x01 (0000ms, 0319ms total)
T2484 004:315 JLINK_ReadReg(R0)  returns 0x00000001 (0000ms, 0319ms total)
T2484 004:315 JLINK_ReadReg(R1)  returns 0x200067F0 (0000ms, 0319ms total)
T2484 004:315 JLINK_ReadReg(R2)  returns 0x00000000 (0000ms, 0319ms total)
T2484 004:315 JLINK_ReadReg(R3)  returns 0x08021A3C (0000ms, 0319ms total)
T2484 004:315 JLINK_ReadReg(R4)  returns 0x00000004 (0000ms, 0319ms total)
T2484 004:315 JLINK_ReadReg(R5)  returns 0x00000002 (0000ms, 0319ms total)
T2484 004:315 JLINK_ReadReg(R6)  returns 0x2000023C (0000ms, 0319ms total)
T2484 004:315 JLINK_ReadReg(R7)  returns 0x08021A3B (0000ms, 0319ms total)
T2484 004:315 JLINK_ReadReg(R8)  returns 0x00000000 (0000ms, 0319ms total)
T2484 004:315 JLINK_ReadReg(R9)  returns 0x00000000 (0000ms, 0319ms total)
T2484 004:315 JLINK_ReadReg(R10)  returns 0x08023910 (0000ms, 0319ms total)
T2484 004:315 JLINK_ReadReg(R11)  returns 0x00000000 (0000ms, 0319ms total)
T2484 004:315 JLINK_ReadReg(R12)  returns 0x00000000 (0000ms, 0319ms total)
T2484 004:315 JLINK_ReadReg(R13 (SP))  returns 0x200067F0 (0000ms, 0319ms total)
T2484 004:315 JLINK_ReadReg(R14)  returns 0x08002007 (0000ms, 0319ms total)
T2484 004:315 JLINK_ReadReg(R15 (PC))  returns 0x0800200C (0000ms, 0319ms total)
T2484 004:315 JLINK_ReadReg(XPSR)  returns 0x21000000 (0000ms, 0319ms total)
T2484 004:315 JLINK_ReadReg(MSP)  returns 0x200067F0 (0000ms, 0319ms total)
T2484 004:315 JLINK_ReadReg(PSP)  returns 0x00000000 (0000ms, 0319ms total)
T2484 004:315 JLINK_ReadReg(CFBP)  returns 0x04000000 (0000ms, 0319ms total)
T2484 004:315 JLINK_ReadReg(FPSCR)  returns 0x03000000 (0003ms, 0322ms total)
T2484 004:318 JLINK_ReadReg(FPS0)  returns 0x00000000 (0000ms, 0322ms total)
T2484 004:318 JLINK_ReadReg(FPS1)  returns 0x00000000 (0001ms, 0323ms total)
T2484 004:319 JLINK_ReadReg(FPS2)  returns 0x00000000 (0000ms, 0323ms total)
T2484 004:319 JLINK_ReadReg(FPS3)  returns 0x00000000 (0000ms, 0323ms total)
T2484 004:319 JLINK_ReadReg(FPS4)  returns 0x00000000 (0000ms, 0323ms total)
T2484 004:319 JLINK_ReadReg(FPS5)  returns 0x00000000 (0000ms, 0323ms total)
T2484 004:319 JLINK_ReadReg(FPS6)  returns 0x00000000 (0000ms, 0323ms total)
T2484 004:319 JLINK_ReadReg(FPS7)  returns 0x00000000 (0000ms, 0323ms total)
T2484 004:319 JLINK_ReadReg(FPS8)  returns 0x00000000 (0000ms, 0323ms total)
T2484 004:319 JLINK_ReadReg(FPS9)  returns 0x00000000 (0000ms, 0323ms total)
T2484 004:319 JLINK_ReadReg(FPS10)  returns 0x00000000 (0000ms, 0323ms total)
T2484 004:319 JLINK_ReadReg(FPS11)  returns 0x00000000 (0000ms, 0323ms total)
T2484 004:319 JLINK_ReadReg(FPS12)  returns 0x00000000 (0000ms, 0323ms total)
T2484 004:319 JLINK_ReadReg(FPS13)  returns 0x00000000 (0000ms, 0323ms total)
T2484 004:319 JLINK_ReadReg(FPS14)  returns 0x00000000 (0000ms, 0323ms total)
T2484 004:319 JLINK_ReadReg(FPS15)  returns 0x00000000 (0000ms, 0323ms total)
T2484 004:319 JLINK_ReadReg(FPS16)  returns 0x00000000 (0000ms, 0323ms total)
T2484 004:319 JLINK_ReadReg(FPS17)  returns 0x00000000 (0000ms, 0323ms total)
T2484 004:319 JLINK_ReadReg(FPS18)  returns 0x00000000 (0000ms, 0323ms total)
T2484 004:319 JLINK_ReadReg(FPS19)  returns 0x00000000 (0000ms, 0323ms total)
T2484 004:319 JLINK_ReadReg(FPS20)  returns 0x00000000 (0000ms, 0323ms total)
T2484 004:319 JLINK_ReadReg(FPS21)  returns 0x00000000 (0000ms, 0323ms total)
T2484 004:319 JLINK_ReadReg(FPS22)  returns 0x00000000 (0000ms, 0323ms total)
T2484 004:319 JLINK_ReadReg(FPS23)  returns 0x00000000 (0000ms, 0323ms total)
T2484 004:319 JLINK_ReadReg(FPS24)  returns 0x00000000 (0000ms, 0323ms total)
T2484 004:319 JLINK_ReadReg(FPS25)  returns 0x00000000 (0000ms, 0323ms total)
T2484 004:319 JLINK_ReadReg(FPS26)  returns 0x00000000 (0000ms, 0323ms total)
T2484 004:319 JLINK_ReadReg(FPS27)  returns 0x00000000 (0000ms, 0323ms total)
T2484 004:319 JLINK_ReadReg(FPS28)  returns 0x00000000 (0000ms, 0323ms total)
T2484 004:319 JLINK_ReadReg(FPS29)  returns 0x00000000 (0000ms, 0323ms total)
T2484 004:319 JLINK_ReadReg(FPS30)  returns 0x00000000 (0000ms, 0323ms total)
T2484 004:319 JLINK_ReadReg(FPS31)  returns 0x00000000 (0000ms, 0323ms total)
T2484 004:319 JLINK_ReadMemEx(0x20005F30, 0x0004 Bytes, ..., AccessWidth = 33554432)Mis-aligned memory read: Address: 0x20005F30, NumBytes: 4, Alignment: 2 (Halfword-aligned)
  ***** Mis-aligned memory read: Address: 0x20005F30, NumBytes: 4, Alignment: 2 (Halfword-aligned) -- CPU_ReadMem(4 bytes @ 0x20005F30) - Data: 00 00 00 00  returns 0x04 (0001ms, 0324ms total)
T25B4 004:322 JLINK_ReadMemEx(0x20001640, 0x000C Bytes, ..., AccessWidth = 33554432)Mis-aligned memory read: Address: 0x20001640, NumBytes: 12, Alignment: 2 (Halfword-aligned)
  ***** Mis-aligned memory read: Address: 0x20001640, NumBytes: 12, Alignment: 2 (Halfword-aligned) -- CPU_ReadMem(12 bytes @ 0x20001640) - Data: 00 00 00 00 00 00 00 00 00 00 00 00  returns 0x0C (0000ms, 0324ms total)
T2484 004:385 JLINK_ReadMemEx(0x0800200C, 0x0002 Bytes, ..., AccessWidth = 33554432)Mis-aligned memory read: Address: 0x0800200C, NumBytes: 2, Alignment: 2 (Halfword-aligned)
  ***** Mis-aligned memory read: Address: 0x0800200C, NumBytes: 2, Alignment: 2 (Halfword-aligned) -- CPU_ReadMem(64 bytes @ 0x08002000) -- Updating DA cache (64 bytes @ 0x08002000) -- Read from DA cache (2 bytes @ 0x0800200C) - Data: AB BE  returns 0x02 (0001ms, 0325ms total)
T2484 004:386 JLINK_WriteReg(R15 (PC), 0x0800200E)  returns 0x00 (0000ms, 0325ms total)
T2484 004:386 JLINK_Go() (0000ms, 0325ms total)
T2484 004:487 JLINK_IsHalted()  returns TRUE (0002ms, 0327ms total)
T2484 004:489 JLINK_Halt()  returns 0x00 (0000ms, 0325ms total)
T2484 004:489 JLINK_IsHalted()  returns TRUE (0000ms, 0325ms total)
T2484 004:489 JLINK_IsHalted()  returns TRUE (0000ms, 0325ms total)
T2484 004:489 JLINK_IsHalted()  returns TRUE (0000ms, 0325ms total)
T2484 004:489 JLINK_ReadReg(R15 (PC))  returns 0x0800200C (0000ms, 0325ms total)
T2484 004:489 JLINK_ReadReg(XPSR)  returns 0x21000000 (0000ms, 0325ms total)
T2484 004:489 JLINK_ReadMemU32(0xE000ED30, 0x0001 Items, ...) -- CPU_ReadMem(4 bytes @ 0xE000ED30) - Data: 02 00 00 00  returns 0x01 (0000ms, 0325ms total)
T2484 004:489 JLINK_ReadMemU32(0xE0001028, 0x0001 Items, ...) -- CPU_ReadMem(4 bytes @ 0xE0001028) - Data: 00 00 00 00  returns 0x01 (0001ms, 0326ms total)
T2484 004:490 JLINK_ReadMemU32(0xE0001038, 0x0001 Items, ...) -- CPU_ReadMem(4 bytes @ 0xE0001038) - Data: 00 02 00 00  returns 0x01 (0000ms, 0326ms total)
T2484 004:490 JLINK_ReadMemU32(0xE0001048, 0x0001 Items, ...) -- CPU_ReadMem(4 bytes @ 0xE0001048) - Data: 00 00 00 00  returns 0x01 (0000ms, 0326ms total)
T2484 004:490 JLINK_ReadMemU32(0xE0001058, 0x0001 Items, ...) -- CPU_ReadMem(4 bytes @ 0xE0001058) - Data: 00 00 00 00  returns 0x01 (0000ms, 0326ms total)
T2484 004:491 JLINK_ReadReg(R0)  returns 0x00000001 (0000ms, 0327ms total)
T2484 004:491 JLINK_ReadReg(R1)  returns 0x200067F0 (0000ms, 0327ms total)
T2484 004:491 JLINK_ReadReg(R2)  returns 0x00000000 (0000ms, 0327ms total)
T2484 004:491 JLINK_ReadReg(R3)  returns 0x08021A40 (0000ms, 0327ms total)
T2484 004:491 JLINK_ReadReg(R4)  returns 0x00000004 (0000ms, 0327ms total)
T2484 004:491 JLINK_ReadReg(R5)  returns 0x00000002 (0000ms, 0327ms total)
T2484 004:491 JLINK_ReadReg(R6)  returns 0x20000290 (0000ms, 0327ms total)
T2484 004:491 JLINK_ReadReg(R7)  returns 0x08021A3F (0000ms, 0327ms total)
T2484 004:491 JLINK_ReadReg(R8)  returns 0x00000000 (0000ms, 0327ms total)
T2484 004:491 JLINK_ReadReg(R9)  returns 0x00000000 (0000ms, 0327ms total)
T2484 004:491 JLINK_ReadReg(R10)  returns 0x08023910 (0000ms, 0327ms total)
T2484 004:491 JLINK_ReadReg(R11)  returns 0x00000000 (0000ms, 0327ms total)
T2484 004:491 JLINK_ReadReg(R12)  returns 0x00000000 (0000ms, 0327ms total)
T2484 004:491 JLINK_ReadReg(R13 (SP))  returns 0x200067F0 (0000ms, 0327ms total)
T2484 004:491 JLINK_ReadReg(R14)  returns 0x08002007 (0000ms, 0327ms total)
T2484 004:491 JLINK_ReadReg(R15 (PC))  returns 0x0800200C (0000ms, 0327ms total)
T2484 004:491 JLINK_ReadReg(XPSR)  returns 0x21000000 (0000ms, 0327ms total)
T2484 004:491 JLINK_ReadReg(MSP)  returns 0x200067F0 (0000ms, 0327ms total)
T2484 004:491 JLINK_ReadReg(PSP)  returns 0x00000000 (0000ms, 0327ms total)
T2484 004:491 JLINK_ReadReg(CFBP)  returns 0x04000000 (0000ms, 0327ms total)
T2484 004:491 JLINK_ReadReg(FPSCR)  returns 0x03000000 (0003ms, 0330ms total)
T2484 004:494 JLINK_ReadReg(FPS0)  returns 0x00000000 (0000ms, 0330ms total)
T2484 004:494 JLINK_ReadReg(FPS1)  returns 0x00000000 (0000ms, 0330ms total)
T2484 004:494 JLINK_ReadReg(FPS2)  returns 0x00000000 (0000ms, 0330ms total)
T2484 004:494 JLINK_ReadReg(FPS3)  returns 0x00000000 (0000ms, 0330ms total)
T2484 004:494 JLINK_ReadReg(FPS4)  returns 0x00000000 (0000ms, 0330ms total)
T2484 004:494 JLINK_ReadReg(FPS5)  returns 0x00000000 (0000ms, 0330ms total)
T2484 004:494 JLINK_ReadReg(FPS6)  returns 0x00000000 (0000ms, 0330ms total)
T2484 004:494 JLINK_ReadReg(FPS7)  returns 0x00000000 (0000ms, 0330ms total)
T2484 004:494 JLINK_ReadReg(FPS8)  returns 0x00000000 (0000ms, 0330ms total)
T2484 004:494 JLINK_ReadReg(FPS9)  returns 0x00000000 (0000ms, 0330ms total)
T2484 004:494 JLINK_ReadReg(FPS10)  returns 0x00000000 (0000ms, 0330ms total)
T2484 004:494 JLINK_ReadReg(FPS11)  returns 0x00000000 (0000ms, 0330ms total)
T2484 004:494 JLINK_ReadReg(FPS12)  returns 0x00000000 (0000ms, 0330ms total)
T2484 004:494 JLINK_ReadReg(FPS13)  returns 0x00000000 (0000ms, 0330ms total)
T2484 004:494 JLINK_ReadReg(FPS14)  returns 0x00000000 (0000ms, 0330ms total)
T2484 004:494 JLINK_ReadReg(FPS15)  returns 0x00000000 (0000ms, 0330ms total)
T2484 004:494 JLINK_ReadReg(FPS16)  returns 0x00000000 (0000ms, 0330ms total)
T2484 004:494 JLINK_ReadReg(FPS17)  returns 0x00000000 (0000ms, 0330ms total)
T2484 004:494 JLINK_ReadReg(FPS18)  returns 0x00000000 (0000ms, 0330ms total)
T2484 004:494 JLINK_ReadReg(FPS19)  returns 0x00000000 (0000ms, 0330ms total)
T2484 004:494 JLINK_ReadReg(FPS20)  returns 0x00000000 (0000ms, 0330ms total)
T2484 004:494 JLINK_ReadReg(FPS21)  returns 0x00000000 (0000ms, 0330ms total)
T2484 004:494 JLINK_ReadReg(FPS22)  returns 0x00000000 (0000ms, 0330ms total)
T2484 004:494 JLINK_ReadReg(FPS23)  returns 0x00000000 (0000ms, 0330ms total)
T2484 004:494 JLINK_ReadReg(FPS24)  returns 0x00000000 (0000ms, 0330ms total)
T2484 004:494 JLINK_ReadReg(FPS25)  returns 0x00000000 (0000ms, 0330ms total)
T2484 004:494 JLINK_ReadReg(FPS26)  returns 0x00000000 (0000ms, 0330ms total)
T2484 004:494 JLINK_ReadReg(FPS27)  returns 0x00000000 (0000ms, 0330ms total)
T2484 004:494 JLINK_ReadReg(FPS28)  returns 0x00000000 (0001ms, 0331ms total)
T2484 004:495 JLINK_ReadReg(FPS29)  returns 0x00000000 (0000ms, 0331ms total)
T2484 004:495 JLINK_ReadReg(FPS30)  returns 0x00000000 (0000ms, 0331ms total)
T2484 004:495 JLINK_ReadReg(FPS31)  returns 0x00000000 (0000ms, 0331ms total)
T2484 004:495 JLINK_ReadMemEx(0x20005F30, 0x0004 Bytes, ..., AccessWidth = 33554432)Mis-aligned memory read: Address: 0x20005F30, NumBytes: 4, Alignment: 2 (Halfword-aligned)
  ***** Mis-aligned memory read: Address: 0x20005F30, NumBytes: 4, Alignment: 2 (Halfword-aligned) -- CPU_ReadMem(4 bytes @ 0x20005F30) - Data: 00 00 00 00  returns 0x04 (0000ms, 0331ms total)
T25B4 004:498 JLINK_ReadMemEx(0x20001640, 0x000C Bytes, ..., AccessWidth = 33554432)Mis-aligned memory read: Address: 0x20001640, NumBytes: 12, Alignment: 2 (Halfword-aligned)
  ***** Mis-aligned memory read: Address: 0x20001640, NumBytes: 12, Alignment: 2 (Halfword-aligned) -- CPU_ReadMem(12 bytes @ 0x20001640) - Data: 00 00 00 00 00 00 00 00 00 00 00 00  returns 0x0C (0001ms, 0332ms total)
T2484 004:692 JLINK_ReadMemEx(0x0800200C, 0x0002 Bytes, ..., AccessWidth = 33554432)Mis-aligned memory read: Address: 0x0800200C, NumBytes: 2, Alignment: 2 (Halfword-aligned)
  ***** Mis-aligned memory read: Address: 0x0800200C, NumBytes: 2, Alignment: 2 (Halfword-aligned) -- CPU_ReadMem(64 bytes @ 0x08002000) -- Updating DA cache (64 bytes @ 0x08002000) -- Read from DA cache (2 bytes @ 0x0800200C) - Data: AB BE  returns 0x02 (0001ms, 0333ms total)
T2484 004:693 JLINK_WriteReg(R15 (PC), 0x0800200E)  returns 0x00 (0000ms, 0333ms total)
T2484 004:693 JLINK_Go() (0001ms, 0334ms total)
T2484 004:795 JLINK_IsHalted()  returns FALSE (0000ms, 0334ms total)
T2484 004:896 JLINK_IsHalted()  returns FALSE (0000ms, 0334ms total)
T2484 004:997 JLINK_IsHalted()  returns FALSE (0000ms, 0334ms total)
T2484 005:098 JLINK_IsHalted()  returns FALSE (0000ms, 0334ms total)
T2484 005:199 JLINK_IsHalted()  returns FALSE (0000ms, 0334ms total)
T2484 005:299 JLINK_ReadMemU32(0xE0001004, 0x0001 Items, ...) -- CPU is running -- CPU_ReadMem(4 bytes @ 0xE0001004) - Data: 4A 0D 0B 06  returns 0x01 (0000ms, 0334ms total)
T25B4 005:303 JLINK_ReadMemEx(0x20001640, 0x000C Bytes, ..., AccessWidth = 33554432)Mis-aligned memory read: Address: 0x20001640, NumBytes: 12, Alignment: 2 (Halfword-aligned)
  ***** Mis-aligned memory read: Address: 0x20001640, NumBytes: 12, Alignment: 2 (Halfword-aligned) -- CPU is running -- CPU_ReadMem(12 bytes @ 0x20001640) - Data: D0 63 00 20 D0 63 00 20 01 00 00 00  returns 0x0C (0001ms, 0335ms total)
T25B4 005:304 JLINK_ReadMemEx(0x200063D0, 0x000C Bytes, ..., AccessWidth = 33554432)Mis-aligned memory read: Address: 0x200063D0, NumBytes: 12, Alignment: 2 (Halfword-aligned)
  ***** Mis-aligned memory read: Address: 0x200063D0, NumBytes: 12, Alignment: 2 (Halfword-aligned) -- CPU is running -- CPU_ReadMem(12 bytes @ 0x200063D0) - Data: 00 00 00 00 00 00 00 00 44 16 00 20  returns 0x0C (0000ms, 0335ms total)
T2484 005:313 JLINK_IsHalted()  returns FALSE (0000ms, 0335ms total)
T2484 005:414 JLINK_IsHalted()  returns FALSE (0000ms, 0335ms total)
T2484 005:515 JLINK_IsHalted()  returns FALSE (0000ms, 0335ms total)
T2484 005:616 JLINK_IsHalted()  returns FALSE (0000ms, 0335ms total)
T2484 005:716 JLINK_IsHalted()  returns FALSE (0000ms, 0335ms total)
T2484 005:817 JLINK_ReadMemU32(0xE0001004, 0x0001 Items, ...) -- CPU is running -- CPU_ReadMem(4 bytes @ 0xE0001004) - Data: 39 F8 39 0B  returns 0x01 (0000ms, 0335ms total)
T25B4 005:822 JLINK_ReadMemEx(0x20001640, 0x000C Bytes, ..., AccessWidth = 33554432)Mis-aligned memory read: Address: 0x20001640, NumBytes: 12, Alignment: 2 (Halfword-aligned)
  ***** Mis-aligned memory read: Address: 0x20001640, NumBytes: 12, Alignment: 2 (Halfword-aligned) -- CPU is running -- CPU_ReadMem(12 bytes @ 0x20001640) - Data: D0 63 00 20 D0 63 00 20 01 00 00 00  returns 0x0C (0001ms, 0336ms total)
T25B4 005:823 JLINK_ReadMemEx(0x200063D0, 0x000C Bytes, ..., AccessWidth = 33554432)Mis-aligned memory read: Address: 0x200063D0, NumBytes: 12, Alignment: 2 (Halfword-aligned)
  ***** Mis-aligned memory read: Address: 0x200063D0, NumBytes: 12, Alignment: 2 (Halfword-aligned) -- CPU is running -- CPU_ReadMem(12 bytes @ 0x200063D0) - Data: 00 00 00 00 00 00 00 00 44 16 00 20  returns 0x0C (0000ms, 0336ms total)
T2484 005:832 JLINK_IsHalted()  returns FALSE (0000ms, 0336ms total)
T2484 005:933 JLINK_IsHalted()  returns FALSE (0000ms, 0336ms total)
T2484 006:034 JLINK_IsHalted()  returns FALSE (0000ms, 0336ms total)
T2484 006:135 JLINK_IsHalted()  returns FALSE (0000ms, 0336ms total)
T2484 006:236 JLINK_IsHalted()  returns FALSE (0000ms, 0336ms total)
T2484 006:337 JLINK_ReadMemU32(0xE0001004, 0x0001 Items, ...) -- CPU is running -- CPU_ReadMem(4 bytes @ 0xE0001004) - Data: CC 44 70 10  returns 0x01 (0000ms, 0336ms total)
T25B4 006:341 JLINK_ReadMemEx(0x20001640, 0x000C Bytes, ..., AccessWidth = 33554432)Mis-aligned memory read: Address: 0x20001640, NumBytes: 12, Alignment: 2 (Halfword-aligned)
  ***** Mis-aligned memory read: Address: 0x20001640, NumBytes: 12, Alignment: 2 (Halfword-aligned) -- CPU is running -- CPU_ReadMem(12 bytes @ 0x20001640) - Data: D0 63 00 20 D0 63 00 20 01 00 00 00  returns 0x0C (0000ms, 0336ms total)
T25B4 006:341 JLINK_ReadMemEx(0x200063D0, 0x000C Bytes, ..., AccessWidth = 33554432)Mis-aligned memory read: Address: 0x200063D0, NumBytes: 12, Alignment: 2 (Halfword-aligned)
  ***** Mis-aligned memory read: Address: 0x200063D0, NumBytes: 12, Alignment: 2 (Halfword-aligned) -- CPU is running -- CPU_ReadMem(12 bytes @ 0x200063D0) - Data: 00 00 00 00 00 00 00 00 44 16 00 20  returns 0x0C (0000ms, 0336ms total)
T2484 006:349 JLINK_IsHalted()  returns FALSE (0000ms, 0336ms total)
T2484 006:452 JLINK_IsHalted()  returns FALSE (0000ms, 0336ms total)
T2484 006:553 JLINK_IsHalted()  returns FALSE (0000ms, 0336ms total)
T2484 006:653 JLINK_IsHalted()  returns FALSE (0000ms, 0336ms total)
T2484 006:754 JLINK_IsHalted()  returns FALSE (0000ms, 0336ms total)
T2484 006:855 JLINK_ReadMemU32(0xE0001004, 0x0001 Items, ...) -- CPU is running -- CPU_ReadMem(4 bytes @ 0xE0001004) - Data: CB CB 9F 15  returns 0x01 (0000ms, 0336ms total)
T25B4 006:859 JLINK_ReadMemEx(0x20001640, 0x000C Bytes, ..., AccessWidth = 33554432)Mis-aligned memory read: Address: 0x20001640, NumBytes: 12, Alignment: 2 (Halfword-aligned)
  ***** Mis-aligned memory read: Address: 0x20001640, NumBytes: 12, Alignment: 2 (Halfword-aligned) -- CPU is running -- CPU_ReadMem(12 bytes @ 0x20001640) - Data: D0 63 00 20 D0 63 00 20 01 00 00 00  returns 0x0C (0000ms, 0336ms total)
T25B4 006:859 JLINK_ReadMemEx(0x200063D0, 0x000C Bytes, ..., AccessWidth = 33554432)Mis-aligned memory read: Address: 0x200063D0, NumBytes: 12, Alignment: 2 (Halfword-aligned)
  ***** Mis-aligned memory read: Address: 0x200063D0, NumBytes: 12, Alignment: 2 (Halfword-aligned) -- CPU is running -- CPU_ReadMem(12 bytes @ 0x200063D0) - Data: 00 00 00 00 00 00 00 00 44 16 00 20  returns 0x0C (0000ms, 0336ms total)
T2484 006:868 JLINK_IsHalted()  returns FALSE (0000ms, 0336ms total)
T2484 006:969 JLINK_IsHalted()  returns FALSE (0000ms, 0336ms total)
T2484 007:070 JLINK_IsHalted()  returns FALSE (0000ms, 0336ms total)
T2484 007:172 JLINK_IsHalted()  returns FALSE (0000ms, 0336ms total)
T2484 007:273 JLINK_IsHalted()  returns FALSE (0000ms, 0336ms total)
T2484 007:374 JLINK_ReadMemU32(0xE0001004, 0x0001 Items, ...) -- CPU is running -- CPU_ReadMem(4 bytes @ 0xE0001004) - Data: 14 9B D1 1A  returns 0x01 (0000ms, 0336ms total)
T25B4 007:377 JLINK_ReadMemEx(0x20001640, 0x000C Bytes, ..., AccessWidth = 33554432)Mis-aligned memory read: Address: 0x20001640, NumBytes: 12, Alignment: 2 (Halfword-aligned)
  ***** Mis-aligned memory read: Address: 0x20001640, NumBytes: 12, Alignment: 2 (Halfword-aligned) -- CPU is running -- CPU_ReadMem(12 bytes @ 0x20001640) - Data: D0 63 00 20 D0 63 00 20 01 00 00 00  returns 0x0C (0001ms, 0337ms total)
T25B4 007:378 JLINK_ReadMemEx(0x200063D0, 0x000C Bytes, ..., AccessWidth = 33554432)Mis-aligned memory read: Address: 0x200063D0, NumBytes: 12, Alignment: 2 (Halfword-aligned)
  ***** Mis-aligned memory read: Address: 0x200063D0, NumBytes: 12, Alignment: 2 (Halfword-aligned) -- CPU is running -- CPU_ReadMem(12 bytes @ 0x200063D0) - Data: 00 00 00 00 00 00 00 00 44 16 00 20  returns 0x0C (0000ms, 0337ms total)
T2484 007:388 JLINK_IsHalted()  returns FALSE (0000ms, 0337ms total)
T2484 007:489 JLINK_IsHalted()  returns FALSE (0000ms, 0337ms total)
T2484 007:589 JLINK_IsHalted()  returns FALSE (0000ms, 0337ms total)
T2484 007:691 JLINK_IsHalted()  returns FALSE (0000ms, 0337ms total)
T2484 007:792 JLINK_IsHalted()  returns FALSE (0000ms, 0337ms total)
T2484 007:893 JLINK_ReadMemU32(0xE0001004, 0x0001 Items, ...) -- CPU is running -- CPU_ReadMem(4 bytes @ 0xE0001004) - Data: ED A1 02 20  returns 0x01 (0000ms, 0337ms total)
T25B4 007:896 JLINK_ReadMemEx(0x20001640, 0x000C Bytes, ..., AccessWidth = 33554432)Mis-aligned memory read: Address: 0x20001640, NumBytes: 12, Alignment: 2 (Halfword-aligned)
  ***** Mis-aligned memory read: Address: 0x20001640, NumBytes: 12, Alignment: 2 (Halfword-aligned) -- CPU is running -- CPU_ReadMem(12 bytes @ 0x20001640) - Data: D0 63 00 20 D0 63 00 20 01 00 00 00  returns 0x0C (0000ms, 0337ms total)
T25B4 007:896 JLINK_ReadMemEx(0x200063D0, 0x000C Bytes, ..., AccessWidth = 33554432)Mis-aligned memory read: Address: 0x200063D0, NumBytes: 12, Alignment: 2 (Halfword-aligned)
  ***** Mis-aligned memory read: Address: 0x200063D0, NumBytes: 12, Alignment: 2 (Halfword-aligned) -- CPU is running -- CPU_ReadMem(12 bytes @ 0x200063D0) - Data: 00 00 00 00 00 00 00 00 44 16 00 20  returns 0x0C (0001ms, 0338ms total)
T2484 007:905 JLINK_IsHalted()  returns FALSE (0000ms, 0338ms total)
T2484 008:006 JLINK_IsHalted()  returns FALSE (0000ms, 0338ms total)
T2484 008:107 JLINK_IsHalted()  returns FALSE (0000ms, 0338ms total)
T2484 008:208 JLINK_IsHalted()  returns FALSE (0000ms, 0338ms total)
T2484 008:309 JLINK_IsHalted()  returns FALSE (0000ms, 0338ms total)
T2484 008:409 JLINK_ReadMemU32(0xE0001004, 0x0001 Items, ...) -- CPU is running -- CPU_ReadMem(4 bytes @ 0xE0001004) - Data: AE 8E 2F 25  returns 0x01 (0000ms, 0338ms total)
T25B4 008:412 JLINK_ReadMemEx(0x20001640, 0x000C Bytes, ..., AccessWidth = 33554432)Mis-aligned memory read: Address: 0x20001640, NumBytes: 12, Alignment: 2 (Halfword-aligned)
  ***** Mis-aligned memory read: Address: 0x20001640, NumBytes: 12, Alignment: 2 (Halfword-aligned) -- CPU is running -- CPU_ReadMem(12 bytes @ 0x20001640) - Data: D0 63 00 20 D0 63 00 20 01 00 00 00  returns 0x0C (0000ms, 0338ms total)
T25B4 008:412 JLINK_ReadMemEx(0x200063D0, 0x000C Bytes, ..., AccessWidth = 33554432)Mis-aligned memory read: Address: 0x200063D0, NumBytes: 12, Alignment: 2 (Halfword-aligned)
  ***** Mis-aligned memory read: Address: 0x200063D0, NumBytes: 12, Alignment: 2 (Halfword-aligned) -- CPU is running -- CPU_ReadMem(12 bytes @ 0x200063D0) - Data: 00 00 00 00 00 00 00 00 44 16 00 20  returns 0x0C (0001ms, 0339ms total)
T2484 008:421 JLINK_IsHalted()  returns FALSE (0001ms, 0340ms total)
T2484 008:522 JLINK_IsHalted()  returns FALSE (0000ms, 0339ms total)
T2484 008:623 JLINK_IsHalted()  returns FALSE (0000ms, 0339ms total)
T2484 008:724 JLINK_IsHalted()  returns FALSE (0000ms, 0339ms total)
T2484 008:824 JLINK_IsHalted()  returns FALSE (0000ms, 0339ms total)
T2484 008:925 JLINK_ReadMemU32(0xE0001004, 0x0001 Items, ...) -- CPU is running -- CPU_ReadMem(4 bytes @ 0xE0001004) - Data: 71 21 5A 2A  returns 0x01 (0000ms, 0339ms total)
T25B4 008:929 JLINK_ReadMemEx(0x20001640, 0x000C Bytes, ..., AccessWidth = 33554432)Mis-aligned memory read: Address: 0x20001640, NumBytes: 12, Alignment: 2 (Halfword-aligned)
  ***** Mis-aligned memory read: Address: 0x20001640, NumBytes: 12, Alignment: 2 (Halfword-aligned) -- CPU is running -- CPU_ReadMem(12 bytes @ 0x20001640) - Data: D0 63 00 20 D0 63 00 20 01 00 00 00  returns 0x0C (0000ms, 0339ms total)
T25B4 008:929 JLINK_ReadMemEx(0x200063D0, 0x000C Bytes, ..., AccessWidth = 33554432)Mis-aligned memory read: Address: 0x200063D0, NumBytes: 12, Alignment: 2 (Halfword-aligned)
  ***** Mis-aligned memory read: Address: 0x200063D0, NumBytes: 12, Alignment: 2 (Halfword-aligned) -- CPU is running -- CPU_ReadMem(12 bytes @ 0x200063D0) - Data: 00 00 00 00 00 00 00 00 44 16 00 20  returns 0x0C (0000ms, 0339ms total)
T2484 008:937 JLINK_IsHalted()  returns FALSE (0000ms, 0339ms total)
T2484 009:039 JLINK_IsHalted()  returns FALSE (0000ms, 0339ms total)
T2484 009:139 JLINK_IsHalted()  returns FALSE (0000ms, 0339ms total)
T2484 009:240 JLINK_IsHalted()  returns FALSE (0000ms, 0339ms total)
T2484 009:341 JLINK_IsHalted()  returns FALSE (0000ms, 0339ms total)
T2484 009:442 JLINK_ReadMemU32(0xE0001004, 0x0001 Items, ...) -- CPU is running -- CPU_ReadMem(4 bytes @ 0xE0001004) - Data: 77 E0 86 2F  returns 0x01 (0000ms, 0339ms total)
T25B4 009:445 JLINK_ReadMemEx(0x20001640, 0x000C Bytes, ..., AccessWidth = 33554432)Mis-aligned memory read: Address: 0x20001640, NumBytes: 12, Alignment: 2 (Halfword-aligned)
  ***** Mis-aligned memory read: Address: 0x20001640, NumBytes: 12, Alignment: 2 (Halfword-aligned) -- CPU is running -- CPU_ReadMem(12 bytes @ 0x20001640) - Data: D0 63 00 20 D0 63 00 20 01 00 00 00  returns 0x0C (0000ms, 0339ms total)
T25B4 009:445 JLINK_ReadMemEx(0x200063D0, 0x000C Bytes, ..., AccessWidth = 33554432)Mis-aligned memory read: Address: 0x200063D0, NumBytes: 12, Alignment: 2 (Halfword-aligned)
  ***** Mis-aligned memory read: Address: 0x200063D0, NumBytes: 12, Alignment: 2 (Halfword-aligned) -- CPU is running -- CPU_ReadMem(12 bytes @ 0x200063D0) - Data: 00 00 00 00 00 00 00 00 44 16 00 20  returns 0x0C (0001ms, 0340ms total)
T2484 009:454 JLINK_IsHalted()  returns FALSE (0001ms, 0341ms total)
T2484 009:556 JLINK_IsHalted()  returns FALSE (0000ms, 0340ms total)
T2484 009:656 JLINK_IsHalted()  returns FALSE (0000ms, 0340ms total)
T2484 009:757 JLINK_IsHalted()  returns FALSE (0000ms, 0340ms total)
T2484 009:858 JLINK_IsHalted()  returns FALSE (0000ms, 0340ms total)
T2484 009:958 JLINK_ReadMemU32(0xE0001004, 0x0001 Items, ...) -- CPU is running -- CPU_ReadMem(4 bytes @ 0xE0001004) - Data: 86 71 B2 34  returns 0x01 (0000ms, 0340ms total)
